v1	V(n001)	I(D1)
-1.000000000000000e-01	-1.000000e-01	-2.242756e-09
-9.990000000000000e-02	-9.990000e-02	-2.242143e-09
-9.980000000000000e-02	-9.980000e-02	-2.241529e-09
-9.970000000000000e-02	-9.970000e-02	-2.240913e-09
-9.959999999999999e-02	-9.960000e-02	-2.240297e-09
-9.949999999999999e-02	-9.950000e-02	-2.239678e-09
-9.939999999999999e-02	-9.940000e-02	-2.239059e-09
-9.929999999999999e-02	-9.930000e-02	-2.238438e-09
-9.919999999999998e-02	-9.920000e-02	-2.237815e-09
-9.909999999999998e-02	-9.910000e-02	-2.237192e-09
-9.899999999999998e-02	-9.900000e-02	-2.236567e-09
-9.889999999999997e-02	-9.890000e-02	-2.235940e-09
-9.879999999999997e-02	-9.880000e-02	-2.235312e-09
-9.869999999999997e-02	-9.870000e-02	-2.234683e-09
-9.859999999999997e-02	-9.860000e-02	-2.234052e-09
-9.849999999999996e-02	-9.850000e-02	-2.233420e-09
-9.839999999999996e-02	-9.840000e-02	-2.232787e-09
-9.829999999999996e-02	-9.830000e-02	-2.232152e-09
-9.819999999999995e-02	-9.820000e-02	-2.231516e-09
-9.809999999999995e-02	-9.810000e-02	-2.230878e-09
-9.799999999999995e-02	-9.800000e-02	-2.230239e-09
-9.789999999999995e-02	-9.790000e-02	-2.229599e-09
-9.779999999999994e-02	-9.780000e-02	-2.228957e-09
-9.769999999999994e-02	-9.770000e-02	-2.228314e-09
-9.759999999999994e-02	-9.760000e-02	-2.227669e-09
-9.749999999999993e-02	-9.750000e-02	-2.227023e-09
-9.739999999999993e-02	-9.740000e-02	-2.226375e-09
-9.729999999999993e-02	-9.730000e-02	-2.225726e-09
-9.719999999999993e-02	-9.720000e-02	-2.225076e-09
-9.709999999999992e-02	-9.710000e-02	-2.224424e-09
-9.699999999999992e-02	-9.700000e-02	-2.223771e-09
-9.689999999999992e-02	-9.690000e-02	-2.223116e-09
-9.679999999999991e-02	-9.680000e-02	-2.222460e-09
-9.669999999999991e-02	-9.670000e-02	-2.221802e-09
-9.659999999999991e-02	-9.660000e-02	-2.221143e-09
-9.649999999999991e-02	-9.650000e-02	-2.220482e-09
-9.639999999999990e-02	-9.640000e-02	-2.219820e-09
-9.629999999999990e-02	-9.630000e-02	-2.219157e-09
-9.619999999999990e-02	-9.620000e-02	-2.218492e-09
-9.609999999999989e-02	-9.610000e-02	-2.217826e-09
-9.599999999999989e-02	-9.600000e-02	-2.217158e-09
-9.589999999999989e-02	-9.590000e-02	-2.216488e-09
-9.579999999999989e-02	-9.580000e-02	-2.215818e-09
-9.569999999999988e-02	-9.570000e-02	-2.215145e-09
-9.559999999999988e-02	-9.560000e-02	-2.214471e-09
-9.549999999999988e-02	-9.550000e-02	-2.213796e-09
-9.539999999999987e-02	-9.540000e-02	-2.213119e-09
-9.529999999999987e-02	-9.530000e-02	-2.212441e-09
-9.519999999999987e-02	-9.520000e-02	-2.211761e-09
-9.509999999999987e-02	-9.510000e-02	-2.211080e-09
-9.499999999999986e-02	-9.500000e-02	-2.210397e-09
-9.489999999999986e-02	-9.490000e-02	-2.209713e-09
-9.479999999999986e-02	-9.480000e-02	-2.209027e-09
-9.469999999999985e-02	-9.470000e-02	-2.208340e-09
-9.459999999999985e-02	-9.460000e-02	-2.207651e-09
-9.449999999999985e-02	-9.450000e-02	-2.206961e-09
-9.439999999999985e-02	-9.440000e-02	-2.206269e-09
-9.429999999999984e-02	-9.430000e-02	-2.205576e-09
-9.419999999999984e-02	-9.420000e-02	-2.204881e-09
-9.409999999999984e-02	-9.410000e-02	-2.204184e-09
-9.399999999999983e-02	-9.400000e-02	-2.203486e-09
-9.389999999999983e-02	-9.390000e-02	-2.202787e-09
-9.379999999999983e-02	-9.380000e-02	-2.202085e-09
-9.369999999999983e-02	-9.370000e-02	-2.201383e-09
-9.359999999999982e-02	-9.360000e-02	-2.200679e-09
-9.349999999999982e-02	-9.350000e-02	-2.199973e-09
-9.339999999999982e-02	-9.340000e-02	-2.199266e-09
-9.329999999999981e-02	-9.330000e-02	-2.198557e-09
-9.319999999999981e-02	-9.320000e-02	-2.197846e-09
-9.309999999999981e-02	-9.310000e-02	-2.197134e-09
-9.299999999999981e-02	-9.300000e-02	-2.196421e-09
-9.289999999999980e-02	-9.290000e-02	-2.195706e-09
-9.279999999999980e-02	-9.280000e-02	-2.194989e-09
-9.269999999999980e-02	-9.270000e-02	-2.194271e-09
-9.259999999999979e-02	-9.260000e-02	-2.193551e-09
-9.249999999999979e-02	-9.250000e-02	-2.192829e-09
-9.239999999999979e-02	-9.240000e-02	-2.192106e-09
-9.229999999999978e-02	-9.230000e-02	-2.191381e-09
-9.219999999999978e-02	-9.220000e-02	-2.190655e-09
-9.209999999999978e-02	-9.210000e-02	-2.189927e-09
-9.199999999999978e-02	-9.200000e-02	-2.189197e-09
-9.189999999999977e-02	-9.190000e-02	-2.188467e-09
-9.179999999999977e-02	-9.180000e-02	-2.187734e-09
-9.169999999999977e-02	-9.170000e-02	-2.186999e-09
-9.159999999999976e-02	-9.160000e-02	-2.186263e-09
-9.149999999999976e-02	-9.150000e-02	-2.185526e-09
-9.139999999999976e-02	-9.140000e-02	-2.184787e-09
-9.129999999999976e-02	-9.130000e-02	-2.184046e-09
-9.119999999999975e-02	-9.120000e-02	-2.183303e-09
-9.109999999999975e-02	-9.110000e-02	-2.182559e-09
-9.099999999999975e-02	-9.100000e-02	-2.181813e-09
-9.089999999999974e-02	-9.090000e-02	-2.181066e-09
-9.079999999999974e-02	-9.080000e-02	-2.180317e-09
-9.069999999999974e-02	-9.070000e-02	-2.179566e-09
-9.059999999999974e-02	-9.060000e-02	-2.178814e-09
-9.049999999999973e-02	-9.050000e-02	-2.178060e-09
-9.039999999999973e-02	-9.040000e-02	-2.177304e-09
-9.029999999999973e-02	-9.030000e-02	-2.176547e-09
-9.019999999999972e-02	-9.020000e-02	-2.175788e-09
-9.009999999999972e-02	-9.010000e-02	-2.175027e-09
-8.999999999999972e-02	-9.000000e-02	-2.174265e-09
-8.989999999999972e-02	-8.990000e-02	-2.173500e-09
-8.979999999999971e-02	-8.980000e-02	-2.172735e-09
-8.969999999999971e-02	-8.970000e-02	-2.171967e-09
-8.959999999999971e-02	-8.960000e-02	-2.171198e-09
-8.949999999999970e-02	-8.950000e-02	-2.170427e-09
-8.939999999999970e-02	-8.940000e-02	-2.169655e-09
-8.929999999999970e-02	-8.930000e-02	-2.168880e-09
-8.919999999999970e-02	-8.920000e-02	-2.168104e-09
-8.909999999999969e-02	-8.910000e-02	-2.167327e-09
-8.899999999999969e-02	-8.900000e-02	-2.166547e-09
-8.889999999999969e-02	-8.890000e-02	-2.165766e-09
-8.879999999999968e-02	-8.880000e-02	-2.164983e-09
-8.869999999999968e-02	-8.870000e-02	-2.164199e-09
-8.859999999999968e-02	-8.860000e-02	-2.163412e-09
-8.849999999999968e-02	-8.850000e-02	-2.162624e-09
-8.839999999999967e-02	-8.840000e-02	-2.161834e-09
-8.829999999999967e-02	-8.830000e-02	-2.161043e-09
-8.819999999999967e-02	-8.820000e-02	-2.160250e-09
-8.809999999999966e-02	-8.810000e-02	-2.159454e-09
-8.799999999999966e-02	-8.800000e-02	-2.158658e-09
-8.789999999999966e-02	-8.790000e-02	-2.157859e-09
-8.779999999999966e-02	-8.780000e-02	-2.157059e-09
-8.769999999999965e-02	-8.770000e-02	-2.156257e-09
-8.759999999999965e-02	-8.760000e-02	-2.155453e-09
-8.749999999999965e-02	-8.750000e-02	-2.154647e-09
-8.739999999999964e-02	-8.740000e-02	-2.153840e-09
-8.729999999999964e-02	-8.730000e-02	-2.153030e-09
-8.719999999999964e-02	-8.720000e-02	-2.152220e-09
-8.709999999999964e-02	-8.710000e-02	-2.151407e-09
-8.699999999999963e-02	-8.700000e-02	-2.150592e-09
-8.689999999999963e-02	-8.690000e-02	-2.149776e-09
-8.679999999999963e-02	-8.680000e-02	-2.148957e-09
-8.669999999999962e-02	-8.670000e-02	-2.148137e-09
-8.659999999999962e-02	-8.660000e-02	-2.147316e-09
-8.649999999999962e-02	-8.650000e-02	-2.146492e-09
-8.639999999999962e-02	-8.640000e-02	-2.145667e-09
-8.629999999999961e-02	-8.630000e-02	-2.144839e-09
-8.619999999999961e-02	-8.620000e-02	-2.144010e-09
-8.609999999999961e-02	-8.610000e-02	-2.143179e-09
-8.599999999999960e-02	-8.600000e-02	-2.142347e-09
-8.589999999999960e-02	-8.590000e-02	-2.141512e-09
-8.579999999999960e-02	-8.580000e-02	-2.140676e-09
-8.569999999999960e-02	-8.570000e-02	-2.139837e-09
-8.559999999999959e-02	-8.560000e-02	-2.138997e-09
-8.549999999999959e-02	-8.550000e-02	-2.138155e-09
-8.539999999999959e-02	-8.540000e-02	-2.137311e-09
-8.529999999999958e-02	-8.530000e-02	-2.136466e-09
-8.519999999999958e-02	-8.520000e-02	-2.135618e-09
-8.509999999999958e-02	-8.510000e-02	-2.134769e-09
-8.499999999999958e-02	-8.500000e-02	-2.133917e-09
-8.489999999999957e-02	-8.490000e-02	-2.133064e-09
-8.479999999999957e-02	-8.480000e-02	-2.132209e-09
-8.469999999999957e-02	-8.470000e-02	-2.131352e-09
-8.459999999999956e-02	-8.460000e-02	-2.130493e-09
-8.449999999999956e-02	-8.450000e-02	-2.129632e-09
-8.439999999999956e-02	-8.440000e-02	-2.128770e-09
-8.429999999999956e-02	-8.430000e-02	-2.127905e-09
-8.419999999999955e-02	-8.420000e-02	-2.127038e-09
-8.409999999999955e-02	-8.410000e-02	-2.126170e-09
-8.399999999999955e-02	-8.400000e-02	-2.125300e-09
-8.389999999999954e-02	-8.390000e-02	-2.124428e-09
-8.379999999999954e-02	-8.380000e-02	-2.123553e-09
-8.369999999999954e-02	-8.370000e-02	-2.122677e-09
-8.359999999999954e-02	-8.360000e-02	-2.121799e-09
-8.349999999999953e-02	-8.350000e-02	-2.120919e-09
-8.339999999999953e-02	-8.340000e-02	-2.120037e-09
-8.329999999999953e-02	-8.330000e-02	-2.119153e-09
-8.319999999999952e-02	-8.320000e-02	-2.118267e-09
-8.309999999999952e-02	-8.310000e-02	-2.117380e-09
-8.299999999999952e-02	-8.300000e-02	-2.116490e-09
-8.289999999999952e-02	-8.290000e-02	-2.115598e-09
-8.279999999999951e-02	-8.280000e-02	-2.114704e-09
-8.269999999999951e-02	-8.270000e-02	-2.113809e-09
-8.259999999999951e-02	-8.260000e-02	-2.112911e-09
-8.249999999999950e-02	-8.250000e-02	-2.112012e-09
-8.239999999999950e-02	-8.240000e-02	-2.111110e-09
-8.229999999999950e-02	-8.230000e-02	-2.110206e-09
-8.219999999999950e-02	-8.220000e-02	-2.109301e-09
-8.209999999999949e-02	-8.210000e-02	-2.108393e-09
-8.199999999999949e-02	-8.200000e-02	-2.107484e-09
-8.189999999999949e-02	-8.190000e-02	-2.106572e-09
-8.179999999999948e-02	-8.180000e-02	-2.105658e-09
-8.169999999999948e-02	-8.170000e-02	-2.104743e-09
-8.159999999999948e-02	-8.160000e-02	-2.103825e-09
-8.149999999999948e-02	-8.150000e-02	-2.102905e-09
-8.139999999999947e-02	-8.140000e-02	-2.101984e-09
-8.129999999999947e-02	-8.130000e-02	-2.101060e-09
-8.119999999999947e-02	-8.120000e-02	-2.100134e-09
-8.109999999999946e-02	-8.110000e-02	-2.099206e-09
-8.099999999999946e-02	-8.100000e-02	-2.098276e-09
-8.089999999999946e-02	-8.090000e-02	-2.097344e-09
-8.079999999999946e-02	-8.080000e-02	-2.096410e-09
-8.069999999999945e-02	-8.070000e-02	-2.095474e-09
-8.059999999999945e-02	-8.060000e-02	-2.094536e-09
-8.049999999999945e-02	-8.050000e-02	-2.093596e-09
-8.039999999999944e-02	-8.040000e-02	-2.092654e-09
-8.029999999999944e-02	-8.030000e-02	-2.091709e-09
-8.019999999999944e-02	-8.020000e-02	-2.090763e-09
-8.009999999999944e-02	-8.010000e-02	-2.089814e-09
-7.999999999999943e-02	-8.000000e-02	-2.088864e-09
-7.989999999999943e-02	-7.990000e-02	-2.087911e-09
-7.979999999999943e-02	-7.980000e-02	-2.086956e-09
-7.969999999999942e-02	-7.970000e-02	-2.085999e-09
-7.959999999999942e-02	-7.960000e-02	-2.085040e-09
-7.949999999999942e-02	-7.950000e-02	-2.084079e-09
-7.939999999999942e-02	-7.940000e-02	-2.083116e-09
-7.929999999999941e-02	-7.930000e-02	-2.082150e-09
-7.919999999999941e-02	-7.920000e-02	-2.081183e-09
-7.909999999999941e-02	-7.910000e-02	-2.080213e-09
-7.899999999999940e-02	-7.900000e-02	-2.079241e-09
-7.889999999999940e-02	-7.890000e-02	-2.078267e-09
-7.879999999999940e-02	-7.880000e-02	-2.077291e-09
-7.869999999999940e-02	-7.870000e-02	-2.076313e-09
-7.859999999999939e-02	-7.860000e-02	-2.075332e-09
-7.849999999999939e-02	-7.850000e-02	-2.074350e-09
-7.839999999999939e-02	-7.840000e-02	-2.073365e-09
-7.829999999999938e-02	-7.830000e-02	-2.072378e-09
-7.819999999999938e-02	-7.820000e-02	-2.071389e-09
-7.809999999999938e-02	-7.810000e-02	-2.070397e-09
-7.799999999999938e-02	-7.800000e-02	-2.069404e-09
-7.789999999999937e-02	-7.790000e-02	-2.068408e-09
-7.779999999999937e-02	-7.780000e-02	-2.067410e-09
-7.769999999999937e-02	-7.770000e-02	-2.066410e-09
-7.759999999999936e-02	-7.760000e-02	-2.065408e-09
-7.749999999999936e-02	-7.750000e-02	-2.064403e-09
-7.739999999999936e-02	-7.740000e-02	-2.063396e-09
-7.729999999999936e-02	-7.730000e-02	-2.062387e-09
-7.719999999999935e-02	-7.720000e-02	-2.061376e-09
-7.709999999999935e-02	-7.710000e-02	-2.060363e-09
-7.699999999999935e-02	-7.700000e-02	-2.059347e-09
-7.689999999999934e-02	-7.690000e-02	-2.058329e-09
-7.679999999999934e-02	-7.680000e-02	-2.057309e-09
-7.669999999999934e-02	-7.670000e-02	-2.056286e-09
-7.659999999999934e-02	-7.660000e-02	-2.055262e-09
-7.649999999999933e-02	-7.650000e-02	-2.054235e-09
-7.639999999999933e-02	-7.640000e-02	-2.053205e-09
-7.629999999999933e-02	-7.630000e-02	-2.052174e-09
-7.619999999999932e-02	-7.620000e-02	-2.051140e-09
-7.609999999999932e-02	-7.610000e-02	-2.050104e-09
-7.599999999999932e-02	-7.600000e-02	-2.049066e-09
-7.589999999999932e-02	-7.590000e-02	-2.048025e-09
-7.579999999999931e-02	-7.580000e-02	-2.046982e-09
-7.569999999999931e-02	-7.570000e-02	-2.045937e-09
-7.559999999999931e-02	-7.560000e-02	-2.044889e-09
-7.549999999999930e-02	-7.550000e-02	-2.043839e-09
-7.539999999999930e-02	-7.540000e-02	-2.042787e-09
-7.529999999999930e-02	-7.530000e-02	-2.041733e-09
-7.519999999999930e-02	-7.520000e-02	-2.040676e-09
-7.509999999999929e-02	-7.510000e-02	-2.039617e-09
-7.499999999999929e-02	-7.500000e-02	-2.038555e-09
-7.489999999999929e-02	-7.490000e-02	-2.037491e-09
-7.479999999999928e-02	-7.480000e-02	-2.036425e-09
-7.469999999999928e-02	-7.470000e-02	-2.035356e-09
-7.459999999999928e-02	-7.460000e-02	-2.034285e-09
-7.449999999999928e-02	-7.450000e-02	-2.033212e-09
-7.439999999999927e-02	-7.440000e-02	-2.032136e-09
-7.429999999999927e-02	-7.430000e-02	-2.031058e-09
-7.419999999999927e-02	-7.420000e-02	-2.029978e-09
-7.409999999999926e-02	-7.410000e-02	-2.028895e-09
-7.399999999999926e-02	-7.400000e-02	-2.027810e-09
-7.389999999999926e-02	-7.390000e-02	-2.026722e-09
-7.379999999999926e-02	-7.380000e-02	-2.025632e-09
-7.369999999999925e-02	-7.370000e-02	-2.024540e-09
-7.359999999999925e-02	-7.360000e-02	-2.023445e-09
-7.349999999999925e-02	-7.350000e-02	-2.022348e-09
-7.339999999999924e-02	-7.340000e-02	-2.021248e-09
-7.329999999999924e-02	-7.330000e-02	-2.020146e-09
-7.319999999999924e-02	-7.320000e-02	-2.019042e-09
-7.309999999999924e-02	-7.310000e-02	-2.017935e-09
-7.299999999999923e-02	-7.300000e-02	-2.016825e-09
-7.289999999999923e-02	-7.290000e-02	-2.015713e-09
-7.279999999999923e-02	-7.280000e-02	-2.014599e-09
-7.269999999999922e-02	-7.270000e-02	-2.013482e-09
-7.259999999999922e-02	-7.260000e-02	-2.012363e-09
-7.249999999999922e-02	-7.250000e-02	-2.011241e-09
-7.239999999999921e-02	-7.240000e-02	-2.010117e-09
-7.229999999999921e-02	-7.230000e-02	-2.008990e-09
-7.219999999999921e-02	-7.220000e-02	-2.007861e-09
-7.209999999999921e-02	-7.210000e-02	-2.006729e-09
-7.199999999999920e-02	-7.200000e-02	-2.005595e-09
-7.189999999999920e-02	-7.190000e-02	-2.004459e-09
-7.179999999999920e-02	-7.180000e-02	-2.003320e-09
-7.169999999999919e-02	-7.170000e-02	-2.002178e-09
-7.159999999999919e-02	-7.160000e-02	-2.001034e-09
-7.149999999999919e-02	-7.150000e-02	-1.999887e-09
-7.139999999999919e-02	-7.140000e-02	-1.998737e-09
-7.129999999999918e-02	-7.130000e-02	-1.997586e-09
-7.119999999999918e-02	-7.120000e-02	-1.996431e-09
-7.109999999999918e-02	-7.110000e-02	-1.995274e-09
-7.099999999999917e-02	-7.100000e-02	-1.994115e-09
-7.089999999999917e-02	-7.090000e-02	-1.992953e-09
-7.079999999999917e-02	-7.080000e-02	-1.991788e-09
-7.069999999999917e-02	-7.070000e-02	-1.990621e-09
-7.059999999999916e-02	-7.060000e-02	-1.989451e-09
-7.049999999999916e-02	-7.050000e-02	-1.988279e-09
-7.039999999999916e-02	-7.040000e-02	-1.987104e-09
-7.029999999999915e-02	-7.030000e-02	-1.985927e-09
-7.019999999999915e-02	-7.020000e-02	-1.984746e-09
-7.009999999999915e-02	-7.010000e-02	-1.983564e-09
-6.999999999999915e-02	-7.000000e-02	-1.982378e-09
-6.989999999999914e-02	-6.990000e-02	-1.981190e-09
-6.979999999999914e-02	-6.980000e-02	-1.980000e-09
-6.969999999999914e-02	-6.970000e-02	-1.978806e-09
-6.959999999999913e-02	-6.960000e-02	-1.977611e-09
-6.949999999999913e-02	-6.950000e-02	-1.976412e-09
-6.939999999999913e-02	-6.940000e-02	-1.975211e-09
-6.929999999999913e-02	-6.930000e-02	-1.974007e-09
-6.919999999999912e-02	-6.920000e-02	-1.972801e-09
-6.909999999999912e-02	-6.910000e-02	-1.971592e-09
-6.899999999999912e-02	-6.900000e-02	-1.970380e-09
-6.889999999999911e-02	-6.890000e-02	-1.969165e-09
-6.879999999999911e-02	-6.880000e-02	-1.967948e-09
-6.869999999999911e-02	-6.870000e-02	-1.966728e-09
-6.859999999999911e-02	-6.860000e-02	-1.965506e-09
-6.849999999999910e-02	-6.850000e-02	-1.964281e-09
-6.839999999999910e-02	-6.840000e-02	-1.963053e-09
-6.829999999999910e-02	-6.830000e-02	-1.961822e-09
-6.819999999999909e-02	-6.820000e-02	-1.960589e-09
-6.809999999999909e-02	-6.810000e-02	-1.959352e-09
-6.799999999999909e-02	-6.800000e-02	-1.958114e-09
-6.789999999999909e-02	-6.790000e-02	-1.956872e-09
-6.779999999999908e-02	-6.780000e-02	-1.955628e-09
-6.769999999999908e-02	-6.770000e-02	-1.954381e-09
-6.759999999999908e-02	-6.760000e-02	-1.953131e-09
-6.749999999999907e-02	-6.750000e-02	-1.951878e-09
-6.739999999999907e-02	-6.740000e-02	-1.950623e-09
-6.729999999999907e-02	-6.730000e-02	-1.949365e-09
-6.719999999999907e-02	-6.720000e-02	-1.948104e-09
-6.709999999999906e-02	-6.710000e-02	-1.946840e-09
-6.699999999999906e-02	-6.700000e-02	-1.945574e-09
-6.689999999999906e-02	-6.690000e-02	-1.944305e-09
-6.679999999999905e-02	-6.680000e-02	-1.943033e-09
-6.669999999999905e-02	-6.670000e-02	-1.941758e-09
-6.659999999999905e-02	-6.660000e-02	-1.940480e-09
-6.649999999999905e-02	-6.650000e-02	-1.939199e-09
-6.639999999999904e-02	-6.640000e-02	-1.937916e-09
-6.629999999999904e-02	-6.630000e-02	-1.936630e-09
-6.619999999999904e-02	-6.620000e-02	-1.935341e-09
-6.609999999999903e-02	-6.610000e-02	-1.934049e-09
-6.599999999999903e-02	-6.600000e-02	-1.932754e-09
-6.589999999999903e-02	-6.590000e-02	-1.931457e-09
-6.579999999999903e-02	-6.580000e-02	-1.930156e-09
-6.569999999999902e-02	-6.570000e-02	-1.928853e-09
-6.559999999999902e-02	-6.560000e-02	-1.927547e-09
-6.549999999999902e-02	-6.550000e-02	-1.926238e-09
-6.539999999999901e-02	-6.540000e-02	-1.924926e-09
-6.529999999999901e-02	-6.530000e-02	-1.923611e-09
-6.519999999999901e-02	-6.520000e-02	-1.922293e-09
-6.509999999999901e-02	-6.510000e-02	-1.920972e-09
-6.499999999999900e-02	-6.500000e-02	-1.919649e-09
-6.489999999999900e-02	-6.490000e-02	-1.918322e-09
-6.479999999999900e-02	-6.480000e-02	-1.916993e-09
-6.469999999999899e-02	-6.470000e-02	-1.915660e-09
-6.459999999999899e-02	-6.460000e-02	-1.914325e-09
-6.449999999999899e-02	-6.450000e-02	-1.912987e-09
-6.439999999999899e-02	-6.440000e-02	-1.911646e-09
-6.429999999999898e-02	-6.430000e-02	-1.910301e-09
-6.419999999999898e-02	-6.420000e-02	-1.908954e-09
-6.409999999999898e-02	-6.410000e-02	-1.907604e-09
-6.399999999999897e-02	-6.400000e-02	-1.906251e-09
-6.389999999999897e-02	-6.390000e-02	-1.904895e-09
-6.379999999999897e-02	-6.380000e-02	-1.903536e-09
-6.369999999999897e-02	-6.370000e-02	-1.902173e-09
-6.359999999999896e-02	-6.360000e-02	-1.900808e-09
-6.349999999999896e-02	-6.350000e-02	-1.899440e-09
-6.339999999999896e-02	-6.340000e-02	-1.898069e-09
-6.329999999999895e-02	-6.330000e-02	-1.896695e-09
-6.319999999999895e-02	-6.320000e-02	-1.895317e-09
-6.309999999999895e-02	-6.310000e-02	-1.893937e-09
-6.299999999999895e-02	-6.300000e-02	-1.892554e-09
-6.289999999999894e-02	-6.290000e-02	-1.891167e-09
-6.279999999999894e-02	-6.280000e-02	-1.889778e-09
-6.269999999999894e-02	-6.270000e-02	-1.888385e-09
-6.259999999999893e-02	-6.260000e-02	-1.886990e-09
-6.249999999999893e-02	-6.250000e-02	-1.885591e-09
-6.239999999999893e-02	-6.240000e-02	-1.884189e-09
-6.229999999999893e-02	-6.230000e-02	-1.882785e-09
-6.219999999999892e-02	-6.220000e-02	-1.881377e-09
-6.209999999999892e-02	-6.210000e-02	-1.879966e-09
-6.199999999999892e-02	-6.200000e-02	-1.878551e-09
-6.189999999999891e-02	-6.190000e-02	-1.877134e-09
-6.179999999999891e-02	-6.180000e-02	-1.875714e-09
-6.169999999999891e-02	-6.170000e-02	-1.874290e-09
-6.159999999999891e-02	-6.160000e-02	-1.872863e-09
-6.149999999999890e-02	-6.150000e-02	-1.871433e-09
-6.139999999999890e-02	-6.140000e-02	-1.870000e-09
-6.129999999999890e-02	-6.130000e-02	-1.868564e-09
-6.119999999999889e-02	-6.120000e-02	-1.867125e-09
-6.109999999999889e-02	-6.110000e-02	-1.865682e-09
-6.099999999999889e-02	-6.100000e-02	-1.864236e-09
