v1	V(n001)	V(n002)	Id(M1)
Step Information: V2=-500m  (Run: 1/6)
-5.000000000000000e-001	-5.000000e-001	-5.000000e-001	-2.485558e-006
-9.999999999999998e-002	-1.000000e-001	-5.000000e-001	-6.676225e-013
3.000000000000000e-001	3.000000e-001	-5.000000e-001	6.099999e-013
7.000000000000001e-001	7.000000e-001	-5.000000e-001	1.410000e-012
1.100000000000000e+000	1.100000e+000	-5.000000e-001	2.210000e-012
1.500000000000000e+000	1.500000e+000	-5.000000e-001	3.010000e-012
Step Information: V2=-100m  (Run: 2/6)
-5.000000000000000e-001	-5.000000e-001	-1.000000e-001	-4.085558e-006
-9.999999999999998e-002	-1.000000e-001	-1.000000e-001	-6.676225e-013
3.000000000000000e-001	3.000000e-001	-1.000000e-001	6.099999e-013
7.000000000000001e-001	7.000000e-001	-1.000000e-001	1.410000e-012
1.100000000000000e+000	1.100000e+000	-1.000000e-001	2.210000e-012
1.500000000000000e+000	1.500000e+000	-1.000000e-001	3.010000e-012
Step Information: V2=300m  (Run: 3/6)
-5.000000000000000e-001	-5.000000e-001	3.000000e-001	-7.985558e-006
-9.999999999999998e-002	-1.000000e-001	3.000000e-001	-7.000007e-007
3.000000000000000e-001	3.000000e-001	3.000000e-001	9.000006e-007
7.000000000000001e-001	7.000000e-001	3.000000e-001	9.000014e-007
1.100000000000000e+000	1.100000e+000	3.000000e-001	9.000022e-007
1.500000000000000e+000	1.500000e+000	3.000000e-001	9.000030e-007
Step Information: V2=700m  (Run: 4/6)
-5.000000000000000e-001	-5.000000e-001	7.000000e-001	-1.198556e-005
-9.999999999999998e-002	-1.000000e-001	7.000000e-001	-1.500001e-006
3.000000000000000e-001	3.000000e-001	7.000000e-001	3.300001e-006
7.000000000000001e-001	7.000000e-001	7.000000e-001	4.900001e-006
1.100000000000000e+000	1.100000e+000	7.000000e-001	4.900002e-006
1.500000000000000e+000	1.500000e+000	7.000000e-001	4.900003e-006
Step Information: V2=1.1  (Run: 5/6)
-5.000000000000000e-001	-5.000000e-001	1.100000e+000	-1.598556e-005
-9.999999999999998e-002	-1.000000e-001	1.100000e+000	-2.300001e-006
3.000000000000000e-001	3.000000e-001	1.100000e+000	5.700001e-006
7.000000000000001e-001	7.000000e-001	1.100000e+000	1.050000e-005
1.100000000000000e+000	1.100000e+000	1.100000e+000	1.210000e-005
1.500000000000000e+000	1.500000e+000	1.100000e+000	1.210000e-005
Step Information: V2=1.5  (Run: 6/6)
-5.000000000000000e-001	-5.000000e-001	1.500000e+000	-1.998556e-005
-9.999999999999998e-002	-1.000000e-001	1.500000e+000	-3.100001e-006
3.000000000000000e-001	3.000000e-001	1.500000e+000	8.100001e-006
7.000000000000001e-001	7.000000e-001	1.500000e+000	1.610000e-005
1.100000000000000e+000	1.100000e+000	1.500000e+000	2.090000e-005
1.500000000000000e+000	1.500000e+000	1.500000e+000	2.250000e-005
